!Agilent Technologies,E5071C,MY46417555,A.11.31
!Date: Tue Nov 14 13:36:34 2017
!Data & Calibration Information:
!Freq	S11:NONE(--)	S21:NONE(--)	S12:NONE(--)	S22:NONE(--)
!PortZ  Port1:50+j0    Port2:50+j0
!Above PortZ is port z conversion or system Z0 setting when saving the data.
!When reading, reference impedance value at option line is always used.
# Hz S dB R 50
122850000	-2.000000e+002	0.000000e+000	1.291437e+001	1.620914e+002	-2.000000e+002	0.000000e+000	-2.000000e+002	0.000000e+000
122851299	-2.000000e+002	0.000000e+000	1.291449e+001	1.620563e+002	-2.000000e+002	0.000000e+000	-2.000000e+002	0.000000e+000
122852598	-2.000000e+002	0.000000e+000	1.291331e+001	1.620255e+002	-2.000000e+002	0.000000e+000	-2.000000e+002	0.000000e+000
122853896	-2.000000e+002	0.000000e+000	1.291308e+001	1.619948e+002	-2.000000e+002	0.000000e+000	-2.000000e+002	0.000000e+000
122855195	-2.000000e+002	0.000000e+000	1.291172e+001	1.619653e+002	-2.000000e+002	0.000000e+000	-2.000000e+002	0.000000e+000
122856494	-2.000000e+002	0.000000e+000	1.291075e+001	1.619366e+002	-2.000000e+002	0.000000e+000	-2.000000e+002	0.000000e+000
122857793	-2.000000e+002	0.000000e+000	1.291011e+001	1.619058e+002	-2.000000e+002	0.000000e+000	-2.000000e+002	0.000000e+000
122859092	-2.000000e+002	0.000000e+000	1.290915e+001	1.618758e+002	-2.000000e+002	0.000000e+000	-2.000000e+002	0.000000e+000
122860391	-2.000000e+002	0.000000e+000	1.290879e+001	1.618494e+002	-2.000000e+002	0.000000e+000	-2.000000e+002	0.000000e+000
122861689	-2.000000e+002	0.000000e+000	1.290857e+001	1.618168e+002	-2.000000e+002	0.000000e+000	-2.000000e+002	0.000000e+000
122862988	-2.000000e+002	0.000000e+000	1.290744e+001	1.617863e+002	-2.000000e+002	0.000000e+000	-2.000000e+002	0.000000e+000
122864287	-2.000000e+002	0.000000e+000	1.290636e+001	1.617545e+002	-2.000000e+002	0.000000e+000	-2.000000e+002	0.000000e+000
122865586	-2.000000e+002	0.000000e+000	1.290631e+001	1.617235e+002	-2.000000e+002	0.000000e+000	-2.000000e+002	0.000000e+000
122866885	-2.000000e+002	0.000000e+000	1.290506e+001	1.616948e+002	-2.000000e+002	0.000000e+000	-2.000000e+002	0.000000e+000
122868184	-2.000000e+002	0.000000e+000	1.290410e+001	1.616647e+002	-2.000000e+002	0.000000e+000	-2.000000e+002	0.000000e+000
122869482	-2.000000e+002	0.000000e+000	1.290372e+001	1.616382e+002	-2.000000e+002	0.000000e+000	-2.000000e+002	0.000000e+000
122870781	-2.000000e+002	0.000000e+000	1.290322e+001	1.616020e+002	-2.000000e+002	0.000000e+000	-2.000000e+002	0.000000e+000
122872080	-2.000000e+002	0.000000e+000	1.290252e+001	1.615731e+002	-2.000000e+002	0.000000e+000	-2.000000e+002	0.000000e+000
122873379	-2.000000e+002	0.000000e+000	1.290152e+001	1.615422e+002	-2.000000e+002	0.000000e+000	-2.000000e+002	0.000000e+000
122874678	-2.000000e+002	0.000000e+000	1.290104e+001	1.615124e+002	-2.000000e+002	0.000000e+000	-2.000000e+002	0.000000e+000
122875977	-2.000000e+002	0.000000e+000	1.289981e+001	1.614828e+002	-2.000000e+002	0.000000e+000	-2.000000e+002	0.000000e+000
122877275	-2.000000e+002	0.000000e+000	1.289986e+001	1.614517e+002	-2.000000e+002	0.000000e+000	-2.000000e+002	0.000000e+000
122878574	-2.000000e+002	0.000000e+000	1.289881e+001	1.614247e+002	-2.000000e+002	0.000000e+000	-2.000000e+002	0.000000e+000
122879873	-2.000000e+002	0.000000e+000	1.289863e+001	1.613941e+002	-2.000000e+002	0.000000e+000	-2.000000e+002	0.000000e+000
122881172	-2.000000e+002	0.000000e+000	1.289760e+001	1.613598e+002	-2.000000e+002	0.000000e+000	-2.000000e+002	0.000000e+000
122882471	-2.000000e+002	0.000000e+000	1.289778e+001	1.613347e+002	-2.000000e+002	0.000000e+000	-2.000000e+002	0.000000e+000
122883770	-2.000000e+002	0.000000e+000	1.289597e+001	1.613039e+002	-2.000000e+002	0.000000e+000	-2.000000e+002	0.000000e+000
122885068	-2.000000e+002	0.000000e+000	1.289558e+001	1.612726e+002	-2.000000e+002	0.000000e+000	-2.000000e+002	0.000000e+000
122886367	-2.000000e+002	0.000000e+000	1.289518e+001	1.612424e+002	-2.000000e+002	0.000000e+000	-2.000000e+002	0.000000e+000
122887666	-2.000000e+002	0.000000e+000	1.289429e+001	1.612109e+002	-2.000000e+002	0.000000e+000	-2.000000e+002	0.000000e+000
122888965	-2.000000e+002	0.000000e+000	1.289353e+001	1.611834e+002	-2.000000e+002	0.000000e+000	-2.000000e+002	0.000000e+000
122890264	-2.000000e+002	0.000000e+000	1.289271e+001	1.611497e+002	-2.000000e+002	0.000000e+000	-2.000000e+002	0.000000e+000
122891563	-2.000000e+002	0.000000e+000	1.289224e+001	1.611179e+002	-2.000000e+002	0.000000e+000	-2.000000e+002	0.000000e+000
122892861	-2.000000e+002	0.000000e+000	1.289176e+001	1.610931e+002	-2.000000e+002	0.000000e+000	-2.000000e+002	0.000000e+000
122894160	-2.000000e+002	0.000000e+000	1.289167e+001	1.610589e+002	-2.000000e+002	0.000000e+000	-2.000000e+002	0.000000e+000
122895459	-2.000000e+002	0.000000e+000	1.288982e+001	1.610333e+002	-2.000000e+002	0.000000e+000	-2.000000e+002	0.000000e+000
122896758	-2.000000e+002	0.000000e+000	1.288965e+001	1.610005e+002	-2.000000e+002	0.000000e+000	-2.000000e+002	0.000000e+000
122898057	-2.000000e+002	0.000000e+000	1.288859e+001	1.609729e+002	-2.000000e+002	0.000000e+000	-2.000000e+002	0.000000e+000
122899355	-2.000000e+002	0.000000e+000	1.288874e+001	1.609433e+002	-2.000000e+002	0.000000e+000	-2.000000e+002	0.000000e+000
122900654	-2.000000e+002	0.000000e+000	1.288832e+001	1.609129e+002	-2.000000e+002	0.000000e+000	-2.000000e+002	0.000000e+000
122901953	-2.000000e+002	0.000000e+000	1.288741e+001	1.608802e+002	-2.000000e+002	0.000000e+000	-2.000000e+002	0.000000e+000
122903252	-2.000000e+002	0.000000e+000	1.288667e+001	1.608536e+002	-2.000000e+002	0.000000e+000	-2.000000e+002	0.000000e+000
122904551	-2.000000e+002	0.000000e+000	1.288580e+001	1.608267e+002	-2.000000e+002	0.000000e+000	-2.000000e+002	0.000000e+000
122905850	-2.000000e+002	0.000000e+000	1.288549e+001	1.607947e+002	-2.000000e+002	0.000000e+000	-2.000000e+002	0.000000e+000
122907148	-2.000000e+002	0.000000e+000	1.288491e+001	1.607663e+002	-2.000000e+002	0.000000e+000	-2.000000e+002	0.000000e+000
122908447	-2.000000e+002	0.000000e+000	1.288370e+001	1.607355e+002	-2.000000e+002	0.000000e+000	-2.000000e+002	0.000000e+000
122909746	-2.000000e+002	0.000000e+000	1.288268e+001	1.607022e+002	-2.000000e+002	0.000000e+000	-2.000000e+002	0.000000e+000
122911045	-2.000000e+002	0.000000e+000	1.288263e+001	1.606741e+002	-2.000000e+002	0.000000e+000	-2.000000e+002	0.000000e+000
122912344	-2.000000e+002	0.000000e+000	1.288181e+001	1.606432e+002	-2.000000e+002	0.000000e+000	-2.000000e+002	0.000000e+000
122913643	-2.000000e+002	0.000000e+000	1.288081e+001	1.606172e+002	-2.000000e+002	0.000000e+000	-2.000000e+002	0.000000e+000
122914941	-2.000000e+002	0.000000e+000	1.288083e+001	1.605826e+002	-2.000000e+002	0.000000e+000	-2.000000e+002	0.000000e+000
122916240	-2.000000e+002	0.000000e+000	1.287999e+001	1.605533e+002	-2.000000e+002	0.000000e+000	-2.000000e+002	0.000000e+000
122917539	-2.000000e+002	0.000000e+000	1.287999e+001	1.605215e+002	-2.000000e+002	0.000000e+000	-2.000000e+002	0.000000e+000
122918838	-2.000000e+002	0.000000e+000	1.287899e+001	1.604900e+002	-2.000000e+002	0.000000e+000	-2.000000e+002	0.000000e+000
122920137	-2.000000e+002	0.000000e+000	1.287786e+001	1.604604e+002	-2.000000e+002	0.000000e+000	-2.000000e+002	0.000000e+000
122921436	-2.000000e+002	0.000000e+000	1.287802e+001	1.604339e+002	-2.000000e+002	0.000000e+000	-2.000000e+002	0.000000e+000
122922734	-2.000000e+002	0.000000e+000	1.287754e+001	1.604056e+002	-2.000000e+002	0.000000e+000	-2.000000e+002	0.000000e+000
122924033	-2.000000e+002	0.000000e+000	1.287622e+001	1.603760e+002	-2.000000e+002	0.000000e+000	-2.000000e+002	0.000000e+000
122925332	-2.000000e+002	0.000000e+000	1.287588e+001	1.603429e+002	-2.000000e+002	0.000000e+000	-2.000000e+002	0.000000e+000
122926631	-2.000000e+002	0.000000e+000	1.287544e+001	1.603144e+002	-2.000000e+002	0.000000e+000	-2.000000e+002	0.000000e+000
122927930	-2.000000e+002	0.000000e+000	1.287479e+001	1.602801e+002	-2.000000e+002	0.000000e+000	-2.000000e+002	0.000000e+000
122929229	-2.000000e+002	0.000000e+000	1.287447e+001	1.602517e+002	-2.000000e+002	0.000000e+000	-2.000000e+002	0.000000e+000
122930527	-2.000000e+002	0.000000e+000	1.287338e+001	1.602216e+002	-2.000000e+002	0.000000e+000	-2.000000e+002	0.000000e+000
122931826	-2.000000e+002	0.000000e+000	1.287242e+001	1.601953e+002	-2.000000e+002	0.000000e+000	-2.000000e+002	0.000000e+000
122933125	-2.000000e+002	0.000000e+000	1.287228e+001	1.601658e+002	-2.000000e+002	0.000000e+000	-2.000000e+002	0.000000e+000
122934424	-2.000000e+002	0.000000e+000	1.287174e+001	1.601341e+002	-2.000000e+002	0.000000e+000	-2.000000e+002	0.000000e+000
122935723	-2.000000e+002	0.000000e+000	1.287123e+001	1.601044e+002	-2.000000e+002	0.000000e+000	-2.000000e+002	0.000000e+000
122937021	-2.000000e+002	0.000000e+000	1.287102e+001	1.600722e+002	-2.000000e+002	0.000000e+000	-2.000000e+002	0.000000e+000
122938320	-2.000000e+002	0.000000e+000	1.287016e+001	1.600446e+002	-2.000000e+002	0.000000e+000	-2.000000e+002	0.000000e+000
122939619	-2.000000e+002	0.000000e+000	1.286830e+001	1.600176e+002	-2.000000e+002	0.000000e+000	-2.000000e+002	0.000000e+000
122940918	-2.000000e+002	0.000000e+000	1.286850e+001	1.599835e+002	-2.000000e+002	0.000000e+000	-2.000000e+002	0.000000e+000
122942217	-2.000000e+002	0.000000e+000	1.286812e+001	1.599570e+002	-2.000000e+002	0.000000e+000	-2.000000e+002	0.000000e+000
122943516	-2.000000e+002	0.000000e+000	1.286717e+001	1.599294e+002	-2.000000e+002	0.000000e+000	-2.000000e+002	0.000000e+000
122944814	-2.000000e+002	0.000000e+000	1.286695e+001	1.598945e+002	-2.000000e+002	0.000000e+000	-2.000000e+002	0.000000e+000
122946113	-2.000000e+002	0.000000e+000	1.286677e+001	1.598637e+002	-2.000000e+002	0.000000e+000	-2.000000e+002	0.000000e+000
122947412	-2.000000e+002	0.000000e+000	1.286576e+001	1.598346e+002	-2.000000e+002	0.000000e+000	-2.000000e+002	0.000000e+000
122948711	-2.000000e+002	0.000000e+000	1.286500e+001	1.598066e+002	-2.000000e+002	0.000000e+000	-2.000000e+002	0.000000e+000
122950010	-2.000000e+002	0.000000e+000	1.286369e+001	1.597751e+002	-2.000000e+002	0.000000e+000	-2.000000e+002	0.000000e+000
122951309	-2.000000e+002	0.000000e+000	1.286409e+001	1.597450e+002	-2.000000e+002	0.000000e+000	-2.000000e+002	0.000000e+000
122952607	-2.000000e+002	0.000000e+000	1.286320e+001	1.597173e+002	-2.000000e+002	0.000000e+000	-2.000000e+002	0.000000e+000
122953906	-2.000000e+002	0.000000e+000	1.286260e+001	1.596879e+002	-2.000000e+002	0.000000e+000	-2.000000e+002	0.000000e+000
122955205	-2.000000e+002	0.000000e+000	1.286216e+001	1.596583e+002	-2.000000e+002	0.000000e+000	-2.000000e+002	0.000000e+000
122956504	-2.000000e+002	0.000000e+000	1.286159e+001	1.596294e+002	-2.000000e+002	0.000000e+000	-2.000000e+002	0.000000e+000
122957803	-2.000000e+002	0.000000e+000	1.286146e+001	1.595981e+002	-2.000000e+002	0.000000e+000	-2.000000e+002	0.000000e+000
122959102	-2.000000e+002	0.000000e+000	1.286085e+001	1.595671e+002	-2.000000e+002	0.000000e+000	-2.000000e+002	0.000000e+000
122960400	-2.000000e+002	0.000000e+000	1.286034e+001	1.595380e+002	-2.000000e+002	0.000000e+000	-2.000000e+002	0.000000e+000
122961699	-2.000000e+002	0.000000e+000	1.285958e+001	1.595127e+002	-2.000000e+002	0.000000e+000	-2.000000e+002	0.000000e+000
122962998	-2.000000e+002	0.000000e+000	1.285892e+001	1.594831e+002	-2.000000e+002	0.000000e+000	-2.000000e+002	0.000000e+000
122964297	-2.000000e+002	0.000000e+000	1.285807e+001	1.594474e+002	-2.000000e+002	0.000000e+000	-2.000000e+002	0.000000e+000
122965596	-2.000000e+002	0.000000e+000	1.285730e+001	1.594207e+002	-2.000000e+002	0.000000e+000	-2.000000e+002	0.000000e+000
122966895	-2.000000e+002	0.000000e+000	1.285699e+001	1.593903e+002	-2.000000e+002	0.000000e+000	-2.000000e+002	0.000000e+000
122968193	-2.000000e+002	0.000000e+000	1.285673e+001	1.593621e+002	-2.000000e+002	0.000000e+000	-2.000000e+002	0.000000e+000
122969492	-2.000000e+002	0.000000e+000	1.285597e+001	1.593290e+002	-2.000000e+002	0.000000e+000	-2.000000e+002	0.000000e+000
122970791	-2.000000e+002	0.000000e+000	1.285518e+001	1.593007e+002	-2.000000e+002	0.000000e+000	-2.000000e+002	0.000000e+000
122972090	-2.000000e+002	0.000000e+000	1.285437e+001	1.592745e+002	-2.000000e+002	0.000000e+000	-2.000000e+002	0.000000e+000
122973389	-2.000000e+002	0.000000e+000	1.285483e+001	1.592464e+002	-2.000000e+002	0.000000e+000	-2.000000e+002	0.000000e+000
122974688	-2.000000e+002	0.000000e+000	1.285442e+001	1.592200e+002	-2.000000e+002	0.000000e+000	-2.000000e+002	0.000000e+000
122975986	-2.000000e+002	0.000000e+000	1.285344e+001	1.591863e+002	-2.000000e+002	0.000000e+000	-2.000000e+002	0.000000e+000
122977285	-2.000000e+002	0.000000e+000	1.285298e+001	1.591519e+002	-2.000000e+002	0.000000e+000	-2.000000e+002	0.000000e+000
122978584	-2.000000e+002	0.000000e+000	1.285216e+001	1.591257e+002	-2.000000e+002	0.000000e+000	-2.000000e+002	0.000000e+000
122979883	-2.000000e+002	0.000000e+000	1.285121e+001	1.590968e+002	-2.000000e+002	0.000000e+000	-2.000000e+002	0.000000e+000
122981182	-2.000000e+002	0.000000e+000	1.285107e+001	1.590631e+002	-2.000000e+002	0.000000e+000	-2.000000e+002	0.000000e+000
122982480	-2.000000e+002	0.000000e+000	1.285082e+001	1.590337e+002	-2.000000e+002	0.000000e+000	-2.000000e+002	0.000000e+000
122983779	-2.000000e+002	0.000000e+000	1.285049e+001	1.590081e+002	-2.000000e+002	0.000000e+000	-2.000000e+002	0.000000e+000
122985078	-2.000000e+002	0.000000e+000	1.284892e+001	1.589751e+002	-2.000000e+002	0.000000e+000	-2.000000e+002	0.000000e+000
122986377	-2.000000e+002	0.000000e+000	1.284936e+001	1.589439e+002	-2.000000e+002	0.000000e+000	-2.000000e+002	0.000000e+000
122987676	-2.000000e+002	0.000000e+000	1.284863e+001	1.589209e+002	-2.000000e+002	0.000000e+000	-2.000000e+002	0.000000e+000
122988975	-2.000000e+002	0.000000e+000	1.284800e+001	1.588867e+002	-2.000000e+002	0.000000e+000	-2.000000e+002	0.000000e+000
122990273	-2.000000e+002	0.000000e+000	1.284739e+001	1.588571e+002	-2.000000e+002	0.000000e+000	-2.000000e+002	0.000000e+000
122991572	-2.000000e+002	0.000000e+000	1.284722e+001	1.588262e+002	-2.000000e+002	0.000000e+000	-2.000000e+002	0.000000e+000
122992871	-2.000000e+002	0.000000e+000	1.284634e+001	1.587980e+002	-2.000000e+002	0.000000e+000	-2.000000e+002	0.000000e+000
122994170	-2.000000e+002	0.000000e+000	1.284581e+001	1.587696e+002	-2.000000e+002	0.000000e+000	-2.000000e+002	0.000000e+000
122995469	-2.000000e+002	0.000000e+000	1.284601e+001	1.587406e+002	-2.000000e+002	0.000000e+000	-2.000000e+002	0.000000e+000
122996768	-2.000000e+002	0.000000e+000	1.284505e+001	1.587113e+002	-2.000000e+002	0.000000e+000	-2.000000e+002	0.000000e+000
122998066	-2.000000e+002	0.000000e+000	1.284430e+001	1.586796e+002	-2.000000e+002	0.000000e+000	-2.000000e+002	0.000000e+000
122999365	-2.000000e+002	0.000000e+000	1.284343e+001	1.586482e+002	-2.000000e+002	0.000000e+000	-2.000000e+002	0.000000e+000
123000664	-2.000000e+002	0.000000e+000	1.284317e+001	1.586228e+002	-2.000000e+002	0.000000e+000	-2.000000e+002	0.000000e+000
123001963	-2.000000e+002	0.000000e+000	1.284330e+001	1.585932e+002	-2.000000e+002	0.000000e+000	-2.000000e+002	0.000000e+000
123003262	-2.000000e+002	0.000000e+000	1.284287e+001	1.585640e+002	-2.000000e+002	0.000000e+000	-2.000000e+002	0.000000e+000
123004561	-2.000000e+002	0.000000e+000	1.284217e+001	1.585357e+002	-2.000000e+002	0.000000e+000	-2.000000e+002	0.000000e+000
123005859	-2.000000e+002	0.000000e+000	1.284132e+001	1.585011e+002	-2.000000e+002	0.000000e+000	-2.000000e+002	0.000000e+000
123007158	-2.000000e+002	0.000000e+000	1.284130e+001	1.584734e+002	-2.000000e+002	0.000000e+000	-2.000000e+002	0.000000e+000
123008457	-2.000000e+002	0.000000e+000	1.284083e+001	1.584410e+002	-2.000000e+002	0.000000e+000	-2.000000e+002	0.000000e+000
123009756	-2.000000e+002	0.000000e+000	1.284033e+001	1.584131e+002	-2.000000e+002	0.000000e+000	-2.000000e+002	0.000000e+000
123011055	-2.000000e+002	0.000000e+000	1.283949e+001	1.583852e+002	-2.000000e+002	0.000000e+000	-2.000000e+002	0.000000e+000
123012354	-2.000000e+002	0.000000e+000	1.283898e+001	1.583530e+002	-2.000000e+002	0.000000e+000	-2.000000e+002	0.000000e+000
123013652	-2.000000e+002	0.000000e+000	1.283849e+001	1.583270e+002	-2.000000e+002	0.000000e+000	-2.000000e+002	0.000000e+000
123014951	-2.000000e+002	0.000000e+000	1.283775e+001	1.583016e+002	-2.000000e+002	0.000000e+000	-2.000000e+002	0.000000e+000
123016250	-2.000000e+002	0.000000e+000	1.283755e+001	1.582647e+002	-2.000000e+002	0.000000e+000	-2.000000e+002	0.000000e+000
123017549	-2.000000e+002	0.000000e+000	1.283700e+001	1.582331e+002	-2.000000e+002	0.000000e+000	-2.000000e+002	0.000000e+000
123018848	-2.000000e+002	0.000000e+000	1.283632e+001	1.582070e+002	-2.000000e+002	0.000000e+000	-2.000000e+002	0.000000e+000
123020146	-2.000000e+002	0.000000e+000	1.283675e+001	1.581817e+002	-2.000000e+002	0.000000e+000	-2.000000e+002	0.000000e+000
123021445	-2.000000e+002	0.000000e+000	1.283511e+001	1.581473e+002	-2.000000e+002	0.000000e+000	-2.000000e+002	0.000000e+000
123022744	-2.000000e+002	0.000000e+000	1.283486e+001	1.581191e+002	-2.000000e+002	0.000000e+000	-2.000000e+002	0.000000e+000
123024043	-2.000000e+002	0.000000e+000	1.283502e+001	1.580901e+002	-2.000000e+002	0.000000e+000	-2.000000e+002	0.000000e+000
123025342	-2.000000e+002	0.000000e+000	1.283459e+001	1.580577e+002	-2.000000e+002	0.000000e+000	-2.000000e+002	0.000000e+000
123026641	-2.000000e+002	0.000000e+000	1.283364e+001	1.580280e+002	-2.000000e+002	0.000000e+000	-2.000000e+002	0.000000e+000
123027939	-2.000000e+002	0.000000e+000	1.283304e+001	1.580007e+002	-2.000000e+002	0.000000e+000	-2.000000e+002	0.000000e+000
123029238	-2.000000e+002	0.000000e+000	1.283318e+001	1.579741e+002	-2.000000e+002	0.000000e+000	-2.000000e+002	0.000000e+000
123030537	-2.000000e+002	0.000000e+000	1.283270e+001	1.579420e+002	-2.000000e+002	0.000000e+000	-2.000000e+002	0.000000e+000
123031836	-2.000000e+002	0.000000e+000	1.283323e+001	1.579132e+002	-2.000000e+002	0.000000e+000	-2.000000e+002	0.000000e+000
123033135	-2.000000e+002	0.000000e+000	1.283108e+001	1.578860e+002	-2.000000e+002	0.000000e+000	-2.000000e+002	0.000000e+000
123034434	-2.000000e+002	0.000000e+000	1.283090e+001	1.578553e+002	-2.000000e+002	0.000000e+000	-2.000000e+002	0.000000e+000
123035732	-2.000000e+002	0.000000e+000	1.283112e+001	1.578278e+002	-2.000000e+002	0.000000e+000	-2.000000e+002	0.000000e+000
123037031	-2.000000e+002	0.000000e+000	1.283034e+001	1.577959e+002	-2.000000e+002	0.000000e+000	-2.000000e+002	0.000000e+000
123038330	-2.000000e+002	0.000000e+000	1.282911e+001	1.577727e+002	-2.000000e+002	0.000000e+000	-2.000000e+002	0.000000e+000
123039629	-2.000000e+002	0.000000e+000	1.282876e+001	1.577383e+002	-2.000000e+002	0.000000e+000	-2.000000e+002	0.000000e+000
123040928	-2.000000e+002	0.000000e+000	1.282916e+001	1.577108e+002	-2.000000e+002	0.000000e+000	-2.000000e+002	0.000000e+000
123042227	-2.000000e+002	0.000000e+000	1.282790e+001	1.576786e+002	-2.000000e+002	0.000000e+000	-2.000000e+002	0.000000e+000
123043525	-2.000000e+002	0.000000e+000	1.282838e+001	1.576486e+002	-2.000000e+002	0.000000e+000	-2.000000e+002	0.000000e+000
123044824	-2.000000e+002	0.000000e+000	1.282736e+001	1.576191e+002	-2.000000e+002	0.000000e+000	-2.000000e+002	0.000000e+000
123046123	-2.000000e+002	0.000000e+000	1.282698e+001	1.575909e+002	-2.000000e+002	0.000000e+000	-2.000000e+002	0.000000e+000
123047422	-2.000000e+002	0.000000e+000	1.282639e+001	1.575609e+002	-2.000000e+002	0.000000e+000	-2.000000e+002	0.000000e+000
123048721	-2.000000e+002	0.000000e+000	1.282671e+001	1.575293e+002	-2.000000e+002	0.000000e+000	-2.000000e+002	0.000000e+000
123050020	-2.000000e+002	0.000000e+000	1.282575e+001	1.575030e+002	-2.000000e+002	0.000000e+000	-2.000000e+002	0.000000e+000
